Sample in Buffer,Sample in Window,TRIGGER,reset_1,done,L2_neur_out_bin[0][15:0],L2_neur_out_bin[1][15:0],L2_neur_out_bin[2][15:0],L2_neur_out_bin[3][15:0],L2_neur_out_bin[4][15:0],L2_neur_out_bin[5][15:0],L2_neur_out_bin[6][15:0],L2_neur_out_bin[7][15:0],L2_neur_out_bin[8][15:0],L2_neur_out_bin[9][15:0],L2_neur_out_bin[10][15:0],L2_neur_out_bin[11][15:0],L2_neur_out_bin[12][15:0],L2_neur_out_bin[13][15:0],L2_neur_out_bin[14][15:0],L2_neur_out_bin[15][15:0],L2_neur_out_bin[16][15:0],L2_neur_out_bin[17][15:0],L2_neur_out_bin[18][15:0],L2_neur_out_bin[19][15:0],L2_neur_out_bin[20][15:0],L2_neur_out_bin[21][15:0],L2_neur_out_bin[22][15:0],L2_neur_out_bin[23][15:0],L2_neur_out_bin[24][15:0],L2_neur_out_bin[25][15:0],L2_neur_out_bin[26][15:0],L2_neur_out_bin[27][15:0],L2_neur_out_bin[28][15:0],L2_neur_out_bin[29][15:0],L2_neur_out_bin[30][15:0],L2_neur_out_bin[31][15:0],L2_macc_out_bin[0][15:0],L2_macc_out_bin[1][15:0],L2_macc_out_bin[2][15:0],L2_macc_out_bin[3][15:0],L2_macc_out_bin[4][15:0],L2_macc_out_bin[5][15:0],L2_macc_out_bin[6][15:0],L2_macc_out_bin[7][15:0],L2_macc_out_bin[8][15:0],L2_macc_out_bin[9][15:0],L2_macc_out_bin[10][15:0],L2_macc_out_bin[11][15:0],L2_macc_out_bin[12][15:0],L2_macc_out_bin[13][15:0],L2_macc_out_bin[14][15:0],L2_macc_out_bin[15][15:0],L2_macc_out_bin[16][15:0],L2_macc_out_bin[17][15:0],L2_macc_out_bin[18][15:0],L2_macc_out_bin[19][15:0],L2_macc_out_bin[20][15:0],L2_macc_out_bin[21][15:0],L2_macc_out_bin[22][15:0],L2_macc_out_bin[23][15:0],L2_macc_out_bin[24][15:0],L2_macc_out_bin[25][15:0],L2_macc_out_bin[26][15:0],L2_macc_out_bin[27][15:0],L2_macc_out_bin[28][15:0],L2_macc_out_bin[29][15:0],L2_macc_out_bin[30][15:0],L2_macc_out_bin[31][15:0]
Radix - UNSIGNED,UNSIGNED,UNSIGNED,HEX,HEX,UNSIGNED,UNSIGNED,UNSIGNED,UNSIGNED,UNSIGNED,UNSIGNED,UNSIGNED,UNSIGNED,UNSIGNED,UNSIGNED,UNSIGNED,UNSIGNED,UNSIGNED,UNSIGNED,UNSIGNED,UNSIGNED,UNSIGNED,UNSIGNED,UNSIGNED,UNSIGNED,UNSIGNED,UNSIGNED,UNSIGNED,UNSIGNED,UNSIGNED,UNSIGNED,UNSIGNED,UNSIGNED,UNSIGNED,UNSIGNED,UNSIGNED,UNSIGNED,UNSIGNED,UNSIGNED,UNSIGNED,UNSIGNED,UNSIGNED,UNSIGNED,UNSIGNED,UNSIGNED,UNSIGNED,UNSIGNED,UNSIGNED,UNSIGNED,UNSIGNED,UNSIGNED,UNSIGNED,UNSIGNED,UNSIGNED,UNSIGNED,UNSIGNED,UNSIGNED,UNSIGNED,UNSIGNED,UNSIGNED,UNSIGNED,UNSIGNED,UNSIGNED,UNSIGNED,UNSIGNED,UNSIGNED,UNSIGNED,UNSIGNED,UNSIGNED
0,0,0,0,0,32768,32768,32768,32768,32768,32768,40259,32768,32768,32768,33010,32768,32768,32768,32768,32880,33004,32768,32768,32768,32768,32768,32768,32768,32768,32791,33480,32768,32768,32768,32768,32768,32707,32879,32425,33160,31912,32491,31994,32629,31696,32649,31401,31732,32678,32008,34912,35191,30850,33085,32383,32506,33038,30010,32283,39292,32775,29467,33447,33537,31435,32591,32967,30458
1,1,0,0,0,32768,32768,32768,32768,32768,32768,40259,32768,32768,32768,33010,32768,32768,32768,32768,32880,33004,32768,32768,32768,32768,32768,32768,32768,32768,32791,33480,32768,32768,32768,32768,32768,32707,32879,32425,33160,31912,32491,31994,32629,31696,32649,31401,31732,32678,32008,34912,35191,30850,33085,32383,32506,33038,30010,32283,39294,32775,29467,33449,33537,31435,32591,32969,30458
2,2,0,0,0,32768,32768,32768,32768,32768,32769,40260,32768,32768,32768,33011,32768,32768,32768,32768,32881,33005,32768,32768,32768,32768,32768,32768,32768,32768,32792,33481,32768,32768,32768,32768,32768,32708,32880,32426,33161,31913,32492,31995,32630,31697,32650,31402,31733,32679,32009,34913,35192,30851,33086,32384,32507,33039,30011,32284,39295,32776,29468,33450,33538,31436,32592,32970,30459
3,3,0,0,0,32768,32768,32768,32768,32768,32770,40261,32768,32768,32768,33012,32768,32768,32768,32768,32882,33006,32768,32768,32768,32768,32768,32768,32768,32768,32793,33482,32768,32768,32768,32768,32768,32709,32881,32427,33162,31914,32493,31996,32631,31698,32651,31403,31734,32680,32010,34914,35193,30852,33087,32385,32508,33040,30012,32285,39296,32777,29469,33451,33539,31437,32593,32971,30460
4,4,0,0,0,32768,32768,32768,32768,32768,32771,40261,32768,32768,32768,33013,32768,32768,32768,32768,32882,33006,32768,32768,32768,32768,32768,32768,32768,32768,32793,33483,32768,32768,32768,32768,32768,32709,32881,32427,33162,31915,32494,31996,32631,31698,32651,31404,31734,32680,32010,34914,35193,30852,33087,32386,32508,33040,30013,32285,39296,32777,29469,33452,33539,31438,32593,32972,30460
5,5,0,0,0,32768,32768,32768,32768,32768,32772,40262,32768,32768,32768,33014,32768,32768,32768,32768,32883,33007,32768,32768,32768,32768,32768,32768,32768,32768,32794,33484,32768,32768,32768,32768,32768,32709,32883,32429,33163,31915,32494,31996,32632,31698,32651,31404,31734,32680,32010,34914,35195,30852,33087,32386,32508,33040,30015,32285,39296,32779,29471,33452,33541,31438,32593,32972,30460
6,6,0,0,0,32768,32768,32768,32768,32768,32772,40262,32768,32768,32768,33014,32768,32768,32768,32768,32883,33007,32768,32768,32768,32768,32768,32768,32768,32768,32794,33484,32768,32768,32768,32768,32768,32709,32883,32429,33163,31915,32494,31996,32632,31698,32651,31404,31734,32680,32010,34914,35195,30852,33087,32386,32508,33040,30015,32285,39296,32779,29471,33452,33541,31438,32593,32972,30460
7,7,0,0,0,32768,32768,32768,32768,32768,32773,40263,32768,32768,32768,33015,32768,32768,32769,32768,32884,33008,32768,32768,32768,32768,32768,32768,32768,32768,32795,33485,32768,32768,32768,32768,32768,32710,32884,32430,33164,31916,32495,31997,32633,31699,32652,31405,31735,32681,32011,34915,35196,30853,33088,32387,32509,33041,30016,32286,39297,32780,29472,33453,33542,31439,32594,32973,30461
8,8,0,0,0,32768,32768,32768,32768,32768,32773,40263,32768,32768,32768,33015,32768,32768,32769,32768,32884,33008,32768,32768,32768,32768,32768,32768,32768,32768,32795,33485,32768,32768,32768,32768,32768,32710,32884,32430,33164,31916,32495,31997,32633,31699,32652,31405,31735,32681,32011,34915,35196,30853,33088,32387,32509,33041,30016,32286,39297,32780,29472,33453,33542,31439,32594,32973,30461
9,9,0,0,0,32768,32768,32768,32768,32768,32773,40263,32768,32768,32768,33015,32768,32768,32769,32768,32884,33008,32768,32768,32768,32768,32768,32768,32768,32768,32795,33485,32768,32768,32768,32768,32768,32710,32884,32430,33164,31916,32495,31997,32633,31699,32652,31405,31735,32681,32011,34915,35196,30853,33088,32387,32509,33041,30016,32286,39297,32780,29472,33453,33542,31439,32594,32973,30461
10,10,0,0,0,32768,32768,32768,32768,32768,32774,40264,32768,32768,32768,33016,32768,32768,32770,32768,32885,33009,32768,32768,32768,32768,32768,32768,32768,32768,32796,33486,32768,32768,32768,32768,32768,32710,32884,32430,33164,31916,32495,31997,32633,31699,32652,31405,31735,32681,32011,34915,35196,30853,33088,32387,32509,33041,30016,32286,39297,32780,29472,33453,33542,31439,32594,32973,30461
11,11,0,0,0,32768,32768,32768,32768,32768,32774,40264,32768,32768,32768,33016,32768,32768,32770,32768,32885,33009,32768,32768,32768,32768,32768,32768,32768,32768,32796,33486,32768,32768,32768,32768,32768,32710,32884,32430,33164,31916,32495,31997,32633,31699,32652,31405,31735,32681,32011,34915,35196,30853,33088,32387,32509,33041,30016,32286,39297,32780,29472,33453,33542,31439,32594,32973,30461
12,12,0,0,0,32768,32768,32768,32768,32768,32775,40265,32768,32768,32768,33017,32768,32768,32771,32768,32884,33008,32768,32768,32768,32768,32768,32768,32768,32768,32797,33487,32768,32768,32768,32768,32768,32711,32885,32431,33165,31917,32496,31996,32634,31698,32653,31404,31732,32682,32012,34914,35196,30852,33089,32388,32508,33042,30017,32287,39298,32781,29473,33454,33543,31439,32595,32974,30460
13,13,0,0,0,32768,32768,32768,32768,32768,32776,40266,32768,32768,32768,33017,32768,32768,32771,32768,32884,33008,32768,32768,32768,32768,32768,32768,32768,32768,32797,33496,32768,32768,32768,32768,32768,32719,32885,32432,33167,31917,32496,31997,32634,31698,32654,31404,31732,32682,32012,34914,35196,30852,33091,32388,32508,33043,30017,32275,39299,32783,29473,33455,33543,31439,32595,32974,30460
14,14,0,0,0,32768,32768,32768,32768,32768,32777,40267,32768,32768,32768,33018,32768,32768,32772,32768,32885,33009,32768,32768,32768,32768,32768,32768,32768,32768,32798,33497,32768,32768,32768,32768,32768,32719,32885,32432,33167,31917,32496,31997,32634,31698,32654,31404,31732,32682,32012,34914,35196,30852,33091,32388,32508,33043,30017,32275,39299,32783,29473,33455,33543,31439,32595,32974,30460
15,15,0,0,0,32768,32768,32768,32768,32768,32777,40267,32768,32768,32768,33019,32768,32768,32772,32768,32886,33010,32768,32768,32768,32768,32768,32768,32768,32768,32798,33498,32768,32768,32768,32768,32768,32720,32886,32433,33168,31918,32496,31997,32634,31698,32655,31405,31732,32683,32012,34914,35197,30853,33092,32388,32508,33044,30018,32276,39300,32784,29473,33456,33544,31440,32595,32974,30461
16,16,0,0,0,32768,32768,32768,32768,32768,32778,40268,32768,32768,32768,33020,32768,32768,32773,32768,32887,33011,32768,32768,32768,32768,32768,32768,32768,32768,32799,33499,32768,32768,32768,32768,32768,32721,32887,32434,33169,31919,32497,31998,32635,31699,32656,31406,31733,32684,32013,34915,35198,30854,33093,32389,32509,33045,30019,32277,39300,32785,29474,33457,33545,31441,32596,32975,30462
17,17,0,0,0,32768,32768,32768,32768,32768,32778,40268,32768,32768,32768,33020,32768,32768,32773,32768,32887,33011,32768,32768,32768,32768,32768,32768,32768,32768,32799,33499,32768,32768,32768,32768,32768,32721,32887,32434,33169,31919,32497,31998,32635,31699,32656,31406,31733,32684,32013,34915,35198,30854,33093,32389,32509,33045,30019,32277,39300,32785,29474,33457,33545,31441,32596,32975,30462
18,18,0,0,0,32768,32768,32768,32768,32768,32779,40269,32768,32768,32768,33021,32768,32768,32774,32768,32888,33010,32768,32768,32768,32768,32768,32768,32768,32768,32800,33496,32768,32768,32768,32768,32768,32721,32888,32435,33169,31920,32496,31999,32636,31698,32657,31407,31734,32685,32014,34914,35199,30854,33094,32388,32508,33044,30018,32276,39300,32786,29475,33456,33544,31442,32597,32990,30462
19,19,0,0,0,32768,32768,32768,32768,32768,32780,40269,32768,32768,32768,33021,32768,32768,32774,32768,32888,33010,32768,32768,32768,32768,32768,32768,32768,32768,32800,33497,32768,32768,32768,32768,32768,32723,32888,32435,33169,31921,32497,31999,32636,31698,32657,31407,31734,32686,32014,34914,35199,30854,33094,32389,32508,33044,30019,32276,39301,32786,29475,33457,33544,31442,32597,32990,30462
20,20,0,0,0,32768,32768,32768,32768,32768,32780,40269,32768,32768,32768,33021,32768,32768,32774,32768,32888,33010,32768,32768,32768,32768,32768,32768,32768,32768,32800,33497,32768,32768,32768,32768,32768,32725,32889,32438,33170,31922,32497,32000,32637,31699,32659,31422,31735,32687,32014,34915,35201,30855,33095,32390,32508,33045,30020,32276,39302,32787,29477,33458,33545,31442,32597,32990,30463
21,21,0,0,0,32768,32768,32768,32768,32768,32780,40269,32768,32768,32768,33021,32768,32768,32774,32768,32888,33010,32768,32768,32768,32768,32768,32768,32768,32768,32800,33497,32768,32768,32768,32768,32768,32726,32889,32439,33170,31923,32498,32001,32638,31700,32660,31423,31734,32688,32015,34916,35200,30854,33094,32391,32509,33044,30021,32277,39303,32788,29478,33459,33544,31443,32598,32991,30464
22,22,0,0,0,32768,32768,32768,32768,32768,32781,40270,32768,32768,32768,33022,32768,32768,32775,32768,32889,33011,32768,32768,32768,32768,32768,32768,32768,32768,32801,33498,32768,32768,32768,32768,32768,32727,32890,32440,33171,31924,32499,32002,32639,31701,32660,31424,31735,32689,32016,34917,35201,30855,33095,32392,32510,33045,30022,32278,39304,32789,29479,33460,33545,31444,32599,32992,30465
23,23,0,0,0,32768,32768,32768,32768,32768,32781,40270,32768,32768,32768,33022,32768,32768,32775,32768,32889,33011,32768,32768,32768,32768,32768,32768,32768,32768,32801,33498,32768,32768,32768,32768,32768,32727,32890,32440,33171,31924,32499,32002,32639,31701,32660,31424,31735,32689,32016,34917,35201,30855,33095,32392,32510,33045,30022,32278,39304,32789,29479,33460,33545,31444,32599,32992,30465
24,24,0,0,0,32768,32768,32768,32768,32768,32782,40271,32768,32768,32768,33023,32768,32768,32774,32768,32890,33012,32768,32768,32768,32768,32768,32768,32768,32768,32802,33499,32768,32768,32768,32768,32768,32728,32891,32441,33172,31925,32500,32003,32640,31702,32661,31425,31736,32690,32017,34918,35200,30856,33096,32393,32511,33044,30023,32279,39305,32790,29480,33461,33546,31445,32600,32993,30466
25,25,0,0,0,32768,32768,32768,32768,32768,32783,40272,32768,32768,32768,33024,32768,32768,32775,32768,32891,33013,32768,32768,32768,32768,32768,32768,32768,32768,32803,33500,32768,32768,32768,32768,32768,32729,32892,32442,33173,31926,32501,32004,32641,31703,32662,31426,31737,32691,32018,34919,35201,30857,33097,32394,32512,33045,30024,32280,39306,32791,29481,33462,33547,31446,32601,32994,30467
26,26,0,0,0,32768,32768,32768,32768,32768,32783,40272,32768,32768,32768,33024,32768,32768,32775,32768,32891,33013,32768,32768,32768,32768,32768,32768,32768,32768,32803,33500,32768,32768,32768,32768,32768,32729,32892,32442,33173,31926,32501,32004,32641,31703,32662,31426,31737,32691,32018,34919,35201,30857,33097,32394,32512,33045,30024,32280,39306,32791,29481,33462,33547,31446,32601,32994,30467
27,27,0,0,0,32768,32768,32768,32768,32768,32783,40272,32768,32768,32768,33024,32768,32768,32783,32768,32891,33013,32768,32768,32768,32768,32768,32768,32768,32768,32803,33500,32768,32768,32768,32768,32768,32729,32892,32442,33173,31926,32501,32004,32641,31703,32662,31426,31737,32691,32018,34920,35201,30857,33097,32394,32512,33045,30024,32280,39306,32791,29481,33462,33547,31446,32601,32994,30467
28,28,0,0,0,32768,32768,32768,32768,32768,32784,40273,32768,32768,32768,33024,32768,32768,32769,32768,32891,33013,32768,32768,32768,32768,32768,32768,32768,32768,32803,33501,32768,32768,32768,32768,32768,32730,32892,32442,33173,31927,32502,32005,32641,31704,32663,31426,31737,32691,32018,34921,35201,30857,33097,32394,32512,33045,30024,32281,39306,32791,29481,33463,33548,31446,32603,32995,30468
29,29,0,0,0,32768,32768,32768,32768,32768,32785,40274,32768,32768,32768,33025,32768,32768,32770,32768,32892,33014,32768,32768,32768,32768,32768,32768,32768,32768,32804,33502,32768,32768,32768,32768,32768,32731,32893,32443,33174,31928,32503,32006,32642,31705,32664,31427,31738,32692,32019,34922,35202,30858,33098,32395,32513,33046,30025,32282,39307,32792,29482,33464,33548,31447,32604,32996,30469
30,30,0,0,0,32768,32768,32768,32768,32768,32786,40274,32768,32768,32768,33027,32768,32768,32770,32768,32892,33015,32768,32768,32768,32768,32768,32768,32768,32768,32804,33502,32768,32768,32768,32768,32768,32732,32894,32443,33174,31929,32504,32006,32642,31707,32664,31429,31738,32692,32019,34922,35202,30859,33099,32395,32515,33046,30027,32282,39308,32793,29482,33466,33548,31449,32604,32996,30469
31,31,0,0,0,32768,32768,32768,32768,32768,32787,40275,32768,32768,32768,33028,32768,32768,32771,32768,32893,33016,32768,32768,32768,32768,32768,32768,32768,32768,32805,33503,32768,32768,32768,32768,32768,32733,32895,32444,33175,31929,32505,32007,32643,31708,32665,31430,31739,32693,32020,34923,35203,30860,33100,32396,32516,33047,30028,32283,39309,32794,29483,33467,33549,31450,32605,32997,30470
32,32,0,0,0,32768,32768,32768,32768,32768,32785,40277,32768,32768,32768,33029,32768,32768,32771,32768,32893,33016,32768,32768,32768,32768,32768,32768,32768,32768,32805,33502,32768,32768,32768,32768,32768,32734,32910,32444,33174,31930,32507,32009,32642,31708,32664,31431,31738,32692,32021,34922,35203,30860,33100,32397,32516,33048,30029,32284,39308,32795,29483,33466,33550,31451,32605,32997,30475
33,33,0,0,0,32768,32768,32768,32768,32768,32786,40278,32768,32768,32768,33030,32768,32768,32772,32768,32894,33017,32768,32768,32768,32768,32768,32768,32768,32768,32806,33503,32768,32768,32768,32768,32768,32734,32910,32444,33174,31930,32507,32009,32642,31708,32664,31431,31738,32692,32021,34922,35203,30860,33100,32397,32516,33048,30029,32284,39308,32795,29483,33466,33550,31451,32605,32997,30475
34,34,0,0,0,32768,32768,32768,32768,32768,32787,40279,32768,32768,32768,33031,32768,32768,32773,32768,32895,33018,32768,32768,32768,32768,32768,32768,32768,32768,32807,33504,32768,32768,32768,32768,32768,32734,32910,32444,33174,31930,32508,32010,32642,31708,32665,31432,31738,32692,32022,34923,35204,30860,33100,32397,32517,33048,30029,32284,39309,32795,29483,33467,33551,31452,32605,32998,30476
35,35,0,0,0,32768,32768,32768,32768,32768,32787,40279,32768,32768,32768,33031,32768,32768,32773,32768,32895,33018,32768,32768,32768,32768,32768,32768,32768,32768,32807,33504,32768,32768,32768,32768,32768,32735,32911,32445,33174,31931,32509,32011,32643,31708,32666,31433,31738,32693,32022,34924,35205,30861,33101,32397,32517,33049,30030,32284,39310,32796,29483,33468,33552,31452,32606,32999,30477
36,36,0,0,0,32768,32768,32768,32768,32768,32788,40280,32768,32768,32768,33032,32768,32768,32774,32768,32896,33019,32768,32768,32768,32768,32768,32768,32768,32768,32808,33505,32768,32768,32768,32768,32768,32736,32912,32446,33175,31932,32510,32012,32644,31709,32667,31434,31739,32694,32023,34925,35206,30862,33102,32398,32518,33050,30031,32285,39311,32797,29484,33469,33553,31453,32607,33000,30478
37,37,0,0,0,32768,32768,32768,32768,32768,32788,40280,32768,32768,32768,33032,32768,32768,32774,32768,32896,33019,32768,32768,32768,32768,32768,32768,32768,32768,32808,33505,32768,32768,32768,32768,32768,32736,32912,32446,33175,31932,32510,32012,32644,31709,32667,31434,31739,32694,32023,34925,35206,30862,33102,32398,32518,33050,30031,32285,39311,32797,29484,33469,33553,31453,32607,33000,30478
38,38,0,0,0,32768,32768,32768,32768,32768,32788,40280,32768,32768,32768,33032,32768,32768,32774,32768,32896,33019,32768,32768,32768,32768,32768,32768,32768,32768,32808,33505,32768,32768,32768,32768,32768,32736,32912,32446,33175,31932,32510,32012,32644,31709,32667,31434,31739,32694,32023,34925,35206,30862,33102,32398,32518,33050,30031,32285,39311,32797,29484,33469,33553,31453,32607,33000,30478
39,39,0,0,0,32768,32768,32768,32768,32768,32789,40281,32768,32768,32768,33033,32768,32768,32775,32768,32897,33020,32768,32768,32768,32768,32768,32768,32768,32768,32809,33506,32768,32768,32768,32768,32768,32736,32912,32446,33175,31932,32510,32012,32644,31709,32667,31434,31743,32694,32023,34925,35206,30862,33102,32398,32518,33050,30031,32285,39311,32797,29484,33469,33553,31453,32607,33000,30478
40,40,0,0,0,32768,32768,32768,32768,32768,32790,40282,32768,32768,32768,33034,32768,32768,32776,32768,32898,33020,32768,32768,32768,32768,32768,32768,32768,32768,32810,33507,32768,32768,32768,32768,32768,32737,32913,32447,33176,31933,32511,32013,32645,31710,32668,31435,31756,32695,32024,34926,35207,30862,33103,32399,32519,33051,30031,32286,39312,32798,29485,33470,33554,31454,32607,33001,30479
41,41,0,0,0,32768,32768,32768,32768,32768,32791,40283,32768,32768,32768,33035,32768,32768,32777,32768,32899,33021,32768,32768,32768,32768,32768,32768,32768,32768,32811,33508,32768,32768,32768,32768,32768,32737,32913,32447,33176,31933,32511,32013,32645,31710,32668,31435,31756,32695,32024,34926,35207,30862,33103,32399,32519,33051,30031,32286,39312,32798,29485,33470,33554,31454,32607,33001,30479
42,42,0,0,0,32768,32768,32768,32768,32768,32791,40283,32768,32768,32768,33035,32768,32768,32777,32768,32899,33021,32768,32768,32768,32768,32768,32768,32768,32768,32811,33508,32768,32768,32768,32768,32768,32737,32913,32447,33176,31933,32511,32013,32645,31710,32668,31435,31756,32695,32024,34926,35207,30862,33103,32399,32519,33051,30031,32286,39312,32798,29485,33470,33554,31454,32607,33001,30479
43,43,0,0,0,32768,32768,32768,32768,32768,32791,40283,32768,32768,32768,33035,32768,32768,32777,32768,32899,33021,32768,32768,32768,32768,32768,32768,32768,32768,32811,33508,32768,32768,32768,32768,32768,32737,32913,32447,33176,31933,32511,32013,32645,31710,32668,31435,31756,32695,32024,34926,35207,30862,33103,32399,32519,33051,30031,32286,39312,32798,29485,33470,33554,31454,32607,33001,30479
